
# Simple i2c io


i2cdetect -y 1

## soft reset

i2cset -y 1 0x5a 0x80 0x63

## enable gpio (stop mode)

i2cset -y 1 0x5a 0x5e 0x00

## enable gpio-pins to led driver
i2cset -y 1 0x5a 0x77 0xff

## direction out (gpio-pins to led driver)
i2cset -y 1 0x5a 0x76 0xff

## led-driver ctl0=1 ctl1=1 (gpio-pins to led driver)
i2cset -y 1 0x5a 0x73 0xff
i2cset -y 1 0x5a 0x74 0xff

## turn leds on or off (not all on at once! one at the time)
i2cset -y 1 0x5a 0x75 0xff
i2cset -y 1 0x5a 0x75 0x00
i2cset -y 1 0x5a 0x75 0
i2cset -y 1 0x5a 0x75 2
i2cset -y 1 0x5a 0x75 4
i2cset -y 1 0x5a 0x75 8
i2cset -y 1 0x5a 0x75 16



